Freq.	V(n002)/V(n001)
1.00000000000000e+002	(-1.04657860595884e+001dB,7.25592395143997e+001°)
1.02329299228075e+002	(-1.02841333560169e+001dB,7.21784359815336e+001°)
1.04712854805090e+002	(-1.01032626182911e+001dB,7.17904397956391e+001°)
1.07151930523761e+002	(-9.92320351497073e+000dB,7.13951876296270e+001°)
1.09647819614318e+002	(-9.74398652537468e+000dB,7.09926204468060e+001°)
1.12201845430196e+002	(-9.56564293455454e+000dB,7.05826838437334e+001°)
1.14815362149688e+002	(-9.38820482546639e+000dB,7.01653284030962e+001°)
1.17489755493953e+002	(-9.21170506813441e+000dB,6.97405100558697e+001°)
1.20226443461741e+002	(-9.03617730559989e+000dB,6.93081904518629e+001°)
1.23026877081238e+002	(-8.86165593644901e+000dB,6.88683373376184e+001°)
1.25892541179417e+002	(-8.68817609371577e+000dB,6.84209249404852e+001°)
1.28824955169313e+002	(-8.51577361996092e+000dB,6.79659343575247e+001°)
1.31825673855641e+002	(-8.34448503833443e+000dB,6.75033539477533e+001°)
1.34896288259165e+002	(-8.17434751943896e+000dB,6.70331797260536e+001°)
1.38038426460288e+002	(-8.00539884382356e+000dB,6.65554157569262e+001°)
1.41253754462275e+002	(-7.83767735995219e+000dB,6.60700745460792e+001°)
1.44543977074593e+002	(-7.67122193750991e+000dB,6.55771774276912e+001°)
1.47910838816821e+002	(-7.50607191593074e+000dB,6.50767549450153e+001°)
1.51356124843621e+002	(-7.34226704805634e+000dB,6.45688472218398e+001°)
1.54881661891248e+002	(-7.17984743886252e+000dB,6.40535043221673e+001°)
1.58489319246111e+002	(-7.01885347922251e+000dB,6.35307865953419e+001°)
1.62181009735893e+002	(-6.85932577471059e+000dB,6.30007650037273e+001°)
1.65958690743756e+002	(-6.70130506948834e+000dB,6.24635214299385e+001°)
1.69824365246174e+002	(-6.54483216535708e+000dB,6.19191489605428e+001°)
1.73780082874937e+002	(-6.38994783610456e+000dB,6.13677521430896e+001°)
1.77827941003892e+002	(-6.23669273732093e+000dB,6.08094472132969e+001°)
1.81970085860998e+002	(-6.08510731190857e+000dB,6.02443622892207e+001°)
1.86208713666287e+002	(-5.93523169156117e+000dB,5.96726375292707e+001°)
1.90546071796324e+002	(-5.78710559454007e+000dB,5.90944252510038e+001°)
1.94984459975804e+002	(-5.64076822012877e+000dB,5.85098900077380e+001°)
1.99526231496888e+002	(-5.49625814019943e+000dB,5.79192086201805e+001°)
2.04173794466953e+002	(-5.35361318837741e+000dB,5.73225701604579e+001°)
2.08929613085404e+002	(-5.21287034734030e+000dB,5.67201758861710e+001°)
2.13796208950223e+002	(-5.07406563483596e+000dB,5.61122391223811e+001°)
2.18776162394955e+002	(-4.93723398904858e+000dB,5.54989850897530e+001°)
2.23872113856834e+002	(-4.80240915398217e+000dB,5.48806506774480e+001°)
2.29086765276777e+002	(-4.66962356556599e+000dB,5.42574841597602e+001°)
2.34422881531992e+002	(-4.53890823921522e+000dB,5.36297448559273e+001°)
2.39883291901949e+002	(-4.41029265960266e+000dB,5.29977027330189e+001°)
2.45470891568503e+002	(-4.28380467341138e+000dB,5.23616379522956e+001°)
2.51188643150958e+002	(-4.15947038584437e+000dB,5.17218403599501e+001°)
2.57039578276886e+002	(-4.03731406166492e+000dB,5.10786089236678e+001°)
2.63026799189538e+002	(-3.91735803152876e+000dB,5.04322511169783e+001°)
2.69153480392691e+002	(-3.79962260434819e+000dB,4.97830822538996e+001°)
2.75422870333816e+002	(-3.68412598639683e+000dB,4.91314247768999e+001°)
2.81838293126445e+002	(-3.57088420782318e+000dB,4.84776075017015e+001°)
2.88403150312660e+002	(-3.45991105719129e+000dB,4.78219648229282e+001°)
2.95120922666638e+002	(-3.35121802460829e+000dB,4.71648358850371e+001°)
3.01995172040201e+002	(-3.24481425393189e+000dB,4.65065637233720e+001°)
3.09029543251358e+002	(-3.14070650447695e+000dB,4.58474943805224e+001°)
3.16227766016837e+002	(-3.03889912256000e+000dB,4.51879760034610e+001°)
3.23593656929628e+002	(-2.93939402313571e+000dB,4.45283579271615e+001°)
3.31131121482590e+002	(-2.84219068168933e+000dB,4.38689897505579e+001°)
3.38844156139202e+002	(-2.74728613645846e+000dB,4.32102204108000e+001°)
3.46736850452531e+002	(-2.65467500096378e+000dB,4.25523972617796e+001°)
3.54813389233575e+002	(-2.56434948673646e+000dB,4.18958651628492e+001°)
3.63078054770101e+002	(-2.47629943603898e+000dB,4.12409655835358e+001°)
3.71535229097172e+002	(-2.39051236428853e+000dB,4.05880357298604e+001°)
3.80189396320560e+002	(-2.30697351180861e+000dB,3.99374076976199e+001°)
3.89045144994280e+002	(-2.22566590445748e+000dB,3.92894076576713e+001°)
3.98107170553496e+002	(-2.14657042261034e+000dB,3.86443550778930e+001°)
4.07380277804112e+002	(-2.06966587790970e+000dB,3.80025619860779e+001°)
4.16869383470335e+002	(-1.99492909714281e+000dB,3.73643322775603e+001°)
4.26579518801592e+002	(-1.92233501255942e+000dB,3.67299610708880e+001°)
4.36515832240165e+002	(-1.85185675790673e+000dB,3.60997341143418e+001°)
4.46683592150962e+002	(-1.78346576943091e+000dB,3.54739272455769e+001°)
4.57088189614874e+002	(-1.71713189107765e+000dB,3.48528059061287e+001°)
4.67735141287197e+002	(-1.65282348311601e+000dB,3.42366247119911e+001°)
4.78630092322637e+002	(-1.59050753341083e+000dB,3.36256270809561e+001°)
4.89778819368445e+002	(-1.53014977057920e+000dB,3.30200449168931e+001°)
5.01187233627271e+002	(-1.47171477828364e+000dB,3.24200983506649e+001°)
5.12861383991364e+002	(-1.41516610994056e+000dB,3.18259955369191e+001°)
5.24807460249771e+002	(-1.36046640315370e+000dB,3.12379325055724e+001°)
5.37031796370251e+002	(-1.30757749321996e+000dB,3.06560930664168e+001°)
5.49540873857623e+002	(-1.25646052509730e+000dB,3.00806487649326e+001°)
5.62341325190348e+002	(-1.20707606327048e+000dB,2.95117588870853e+001°)
5.75439937337155e+002	(-1.15938419899959e+000dB,2.89495705106247e+001°)
5.88843655355587e+002	(-1.11334465448757e+000dB,2.83942186001850e+001°)
6.02559586074356e+002	(-1.06891688355573e+000dB,2.78458261433082e+001°)
6.16595001861481e+002	(-1.02606016846896e+000dB,2.73045043243825e+001°)
6.30957344480192e+002	(-9.84733712605529e-001dB,2.67703527333923e+001°)
6.45654229034654e+002	(-9.44896728717961e-001dB,2.62434596063227e+001°)
6.60693448007594e+002	(-9.06508522582067e-001dB,2.57239020940422e+001°)
6.76082975391980e+002	(-8.69528571879535e-001dB,2.52117465565010e+001°)
6.91830970918935e+002	(-8.33916600205520e-001dB,2.47070488791246e+001°)
7.07945784384136e+002	(-7.99632646135754e-001dB,2.42098548083551e+001°)
7.24435960074988e+002	(-7.66637127328009e-001dB,2.37202003033808e+001°)
7.41310241300916e+002	(-7.34890899669543e-001dB,2.32381119012118e+001°)
7.58577575029182e+002	(-7.04355311515793e-001dB,2.27636070923851e+001°)
7.76247116628690e+002	(-6.74992253095677e-001dB,2.22966947047263e+001°)
7.94328234724279e+002	(-6.46764201185638e-001dB,2.18373752927479e+001°)
8.12830516164097e+002	(-6.19634259177818e-001dB,2.13856415304235e+001°)
8.31763771102669e+002	(-5.93566192687862e-001dB,2.09414786052422e+001°)
8.51138038202374e+002	(-5.68524460864669e-001dB,2.05048646116170e+001°)
8.70963589956078e+002	(-5.44474243578263e-001dB,2.00757709418860e+001°)
8.91250938133743e+002	(-5.21381464672987e-001dB,1.96541626733142e+001°)
9.12010839355907e+002	(-4.99212811481530e-001dB,1.92399989496664e+001°)
9.33254300796988e+002	(-4.77935750801261e-001dB,1.88332333560809e+001°)
9.54992586021433e+002	(-4.57518541537923e-001dB,1.84338142861259e+001°)
9.77237220955808e+002	(-4.37930244223556e-001dB,1.80416853000709e+001°)
9.99999999999997e+002	(-4.19140727615143e-001dB,1.76567854735386e+001°)
1.02329299228075e+003	(-4.01120672578925e-001dB,1.72790497358427e+001°)
1.04712854805090e+003	(-3.83841573462042e-001dB,1.69084091974320e+001°)
1.07151930523760e+003	(-3.67275737148885e-001dB,1.65447914659822e+001°)
1.09647819614318e+003	(-3.51396279994111e-001dB,1.61881209507807e+001°)
1.12201845430196e+003	(-3.36177122818073e-001dB,1.58383191551453e+001°)
1.14815362149688e+003	(-3.21592984143576e-001dB,1.54953049567121e+001°)
1.17489755493953e+003	(-3.07619371845214e-001dB,1.51589948755021e+001°)
1.20226443461741e+003	(-2.94232573374951e-001dB,1.48293033297542e+001°)
1.23026877081238e+003	(-2.81409644719188e-001dB,1.45061428795746e+001°)
1.25892541179416e+003	(-2.69128398234401e-001dB,1.41894244585103e+001°)
1.28824955169313e+003	(-2.57367389499865e-001dB,1.38790575932058e+001°)
1.31825673855640e+003	(-2.46105903317667e-001dB,1.35749506113462e+001°)
1.34896288259165e+003	(-2.35323938981727e-001dB,1.32770108381268e+001°)
1.38038426460288e+003	(-2.25002194929373e-001dB,1.29851447815229e+001°)
1.41253754462275e+003	(-2.15122052880888e-001dB,1.26992583066594e+001°)
1.44543977074592e+003	(-2.05665561564682e-001dB,1.24192567996021e+001°)
1.47910838816820e+003	(-1.96615420118097e-001dB,1.21450453209116e+001°)
1.51356124843620e+003	(-1.87954961246549e-001dB,1.18765287493115e+001°)
1.54881661891248e+003	(-1.79668134216789e-001dB,1.16136119158361e+001°)
1.58489319246111e+003	(-1.71739487753283e-001dB,1.13561997288271e+001°)
1.62181009735892e+003	(-1.64154152900539e-001dB,1.11041972901535e+001°)
1.65958690743755e+003	(-1.56897825907988e-001dB,1.08575100030306e+001°)
1.69824365246174e+003	(-1.49956751188625e-001dB,1.06160436718121e+001°)
1.73780082874937e+003	(-1.43317704397061e-001dB,1.03797045941280e+001°)
1.77827941003892e+003	(-1.36967975667853e-001dB,1.01483996457332e+001°)
1.81970085860998e+003	(-1.30895353050182e-001dB,9.92203635843095e+000°)
1.86208713666286e+003	(-1.25088106170701e-001dB,9.70052299142060e+000°)
1.90546071796324e+003	(-1.19534970152315e-001dB,9.48376859641838e+000°)
1.94984459975804e+003	(-1.14225129812944e-001dB,9.27168307688463e+000°)
1.99526231496887e+003	(-1.09148204164901e-001dB,9.06417724168429e+000°)
2.04173794466952e+003	(-1.04294231232302e-001dB,8.86116285349576e+000°)
2.08929613085403e+003	(-9.96536532010861e-002dB,8.66255267227254e+000°)
2.13796208950222e+003	(-9.52173019135275e-002dB,8.46826049405072e+000°)
2.18776162394954e+003	(-9.09763847167108e-002dB,8.27820118538436e+000°)
2.23872113856833e+003	(-8.69224706722388e-002dB,8.09229071367880e+000°)
2.29086765276776e+003	(-8.30474771324465e-002dB,7.91044617368082e+000°)
2.34422881531991e+003	(-7.93436566866042e-002dB,7.73258581037310e+000°)
2.39883291901948e+003	(-7.58035844789249e-002dB,7.55862903850879e+000°)
2.45470891568502e+003	(-7.24201458988062e-002dB,7.38849645901136e+000°)
2.51188643150957e+003	(-6.91865246423791e-002dB,7.22210987245338e+000°)
2.57039578276885e+003	(-6.60961911432833e-002dB,7.05939228981778e+000°)
2.63026799189537e+003	(-6.31428913696342e-002dB,6.90026794073411e+000°)
2.69153480392690e+003	(-6.03206359831570e-002dB,6.74466227937273e+000°)
2.75422870333815e+003	(-5.76236898557357e-002dB,6.59250198816983e+000°)
2.81838293126444e+003	(-5.50465619379174e-002dB,6.44371497954658e+000°)
2.88403150312659e+003	(-5.25839954733661e-002dB,6.29823039577690e+000°)
2.95120922666637e+003	(-5.02309585526957e-002dB,6.15597860714934e+000°)
3.01995172040200e+003	(-4.79826349997503e-002dB,6.01689120856019e+000°)
3.09029543251358e+003	(-4.58344155830142e-002dB,5.88090101466688e+000°)
3.16227766016836e+003	(-4.37818895445794e-002dB,5.74794205372319e+000°)
3.23593656929627e+003	(-4.18208364388380e-002dB,5.61794956020992e+000°)
3.31131121482590e+003	(-3.99472182729597e-002dB,5.49085996636841e+000°)
3.38844156139201e+003	(-3.81571719409865e-002dB,5.36661089273679e+000°)
3.46736850452530e+003	(-3.64470019434178e-002dB,5.24514113778319e+000°)
3.54813389233574e+003	(-3.48131733840223e-002dB,5.12639066672355e+000°)
3.63078054770100e+003	(-3.32523052356644e-002dB,5.01030059960644e+000°)
3.71535229097171e+003	(-3.17611638669005e-002dB,4.89681319874129e+000°)
3.80189396320559e+003	(-3.03366568212204e-002dB,4.78587185554197e+000°)
3.89045144994279e+003	(-2.89758268407972e-002dB,4.67742107685213e+000°)
3.98107170553495e+003	(-2.76758461267968e-002dB,4.57140647081471e+000°)
4.07380277804111e+003	(-2.64340108282851e-002dB,4.46777473234322e+000°)
4.16869383470333e+003	(-2.52477357520495e-002dB,4.36647362824865e+000°)
4.26579518801591e+003	(-2.41145492856448e-002dB,4.26745198207186e+000°)
4.36515832240164e+003	(-2.30320885262086e-002dB,4.17065965866763e+000°)
4.46683592150961e+003	(-2.19980946077413e-002dB,4.07604754858334e+000°)
4.57088189614873e+003	(-2.10104082196653e-002dB,3.98356755227186e+000°)
4.67735141287196e+003	(-2.00669653097059e-002dB,3.89317256417530e+000°)
4.78630092322636e+003	(-1.91657929642930e-002dB,3.80481645671344e+000°)
4.89778819368444e+003	(-1.83050054598384e-002dB,3.71845406420798e+000°)
5.01187233627270e+003	(-1.74828004784467e-002dB,3.63404116677141e+000°)
5.12861383991362e+003	(-1.66974554818399e-002dB,3.55153447418670e+000°)
5.24807460249770e+003	(-1.59473242373647e-002dB,3.47089160980216e+000°)
5.37031796370250e+003	(-1.52308334902355e-002dB,3.39207109446352e+000°)
5.49540873857622e+003	(-1.45464797762836e-002dB,3.31503233050352e+000°)
5.62341325190346e+003	(-1.38928263697103e-002dB,3.23973558580753e+000°)
5.75439937337154e+003	(-1.32685003604652e-002dB,3.16614197797192e+000°)
5.88843655355586e+003	(-1.26721898561229e-002dB,3.09421345857060e+000°)
6.02559586074354e+003	(-1.21026413032407e-002dB,3.02391279754346e+000°)
6.16595001861479e+003	(-1.15586569233798e-002dB,2.95520356771917e+000°)
6.30957344480190e+003	(-1.10390922591555e-002dB,2.88805012948376e+000°)
6.45654229034652e+003	(-1.05428538258117e-002dB,2.82241761560482e+000°)
6.60693448007592e+003	(-1.00688968640200e-002dB,2.75827191622055e+000°)
6.76082975391978e+003	(-9.61622318970426e-003dB,2.69557966400142e+000°)
6.91830970918932e+003	(-9.18387913691980e-003dB,2.63430821949178e+000°)
7.07945784384134e+003	(-8.77095358988382e-003dB,2.57442565663735e+000°)
7.24435960074986e+003	(-8.37657610047631e-003dB,2.51590074850413e+000°)
7.41310241300913e+003	(-7.99991508761695e-003dB,2.45870295319340e+000°)
7.58577575029179e+003	(-7.64017611507845e-003dB,2.40280239995670e+000°)
7.76247116628687e+003	(-7.29660024445670e-003dB,2.34816987551418e+000°)
7.94328234724277e+003	(-6.96846246007928e-003dB,2.29477681057907e+000°)
8.12830516164094e+003	(-6.65507016284765e-003dB,2.24259526659047e+000°)
8.31763771102666e+003	(-6.35576173006485e-003dB,2.19159792265612e+000°)
8.51138038202371e+003	(-6.06990513841828e-003dB,2.14175806270656e+000°)
8.70963589956075e+003	(-5.79689664745585e-003dB,2.09304956286134e+000°)
8.91250938133740e+003	(-5.53615954093115e-003dB,2.04544687900777e+000°)
9.12010839355904e+003	(-5.28714292354284e-003dB,1.99892503459251e+000°)
9.33254300796985e+003	(-5.04932057070936e-003dB,1.95345960862535e+000°)
9.54992586021430e+003	(-4.82218982904376e-003dB,1.90902672389517e+000°)
9.77237220955804e+003	(-4.60527056538213e-003dB,1.86560303539680e+000°)
1.00000000000000e+004	(-4.39810416223637e-003dB,1.82316571896813e+000°)
